
T6244 007:651 SEGGER J-Link V6.46 Log File (0000ms, 0006ms total)
T6244 007:651 DLL Compiled: May 23 2019 17:49:56 (0000ms, 0006ms total)
T6244 007:651 Logging started @ 2020-03-13 11:55 (0000ms, 0006ms total)
T6244 007:651 JLINK_SetWarnOutHandler(...) (0000ms, 0006ms total)
T6244 007:652 JLINK_OpenEx(...)
Firmware: J-Link V9 compiled May 17 2019 09:50:41
Hardware: V9.30
S/N: 59300616
Feature(s): RDI, FlashBP, FlashDL, JFlash, GDB
TELNET listener socket opened on port 19021WEBSRV 
Starting webserver (0078ms, 0084ms total)
T6244 007:652 WEBSRV Webserver running on local port 19080 (0078ms, 0084ms total)
T6244 007:652   returns O.K. (0078ms, 0084ms total)
T6244 007:730 JLINK_GetEmuCaps()  returns 0xB9FF7BBF (0000ms, 0084ms total)
T6244 007:731 JLINK_TIF_GetAvailable(...) (0001ms, 0085ms total)
T6244 007:732 JLINK_SetErrorOutHandler(...) (0000ms, 0085ms total)
T6244 007:732 JLINK_ExecCommand("ProjectFile = "D:\MySpace\Github\mcuFrameworks_Loop\pro\JLinkSettings.ini"", ...).   returns 0x00 (0014ms, 0099ms total)
T6244 007:748 JLINK_ExecCommand("Device = STM32F407ZE", ...). Device "STM32F407ZE" selected.  returns 0x00 (0009ms, 0108ms total)
T6244 007:757 JLINK_ExecCommand("DisableConnectionTimeout", ...).   returns 0x01 (0000ms, 0108ms total)
T6244 007:757 JLINK_GetHardwareVersion()  returns 0x16B48 (0000ms, 0108ms total)
T6244 007:757 JLINK_GetDLLVersion()  returns 64600 (0000ms, 0108ms total)
T6244 007:757 JLINK_GetFirmwareString(...) (0000ms, 0108ms total)
T6244 007:761 JLINK_GetDLLVersion()  returns 64600 (0000ms, 0108ms total)
T6244 007:761 JLINK_GetCompileDateTime() (0000ms, 0108ms total)
T6244 007:769 JLINK_GetFirmwareString(...) (0000ms, 0108ms total)
T6244 007:774 JLINK_GetHardwareVersion()  returns 0x16B48 (0000ms, 0108ms total)
T6244 007:787 JLINK_TIF_Select(JLINKARM_TIF_SWD)  returns 0x00 (0003ms, 0111ms total)
T6244 007:791 JLINK_SetSpeed(10000) (0000ms, 0112ms total)
T6244 007:791 JLINK_GetId() >0x10B TIF>Found SW-DP with ID 0x2BA01477 >0x0D TIF> >0x28 TIF> >0x0D TIF> >0x28 TIF> >0x0D TIF> >0x28 TIF> >0x0D TIF> >0x28 TIF> >0x0D TIF> >0x21 TIF> >0x0D TIF> >0x28 TIF> >0x0D TIF> >0x28 TIF> >0x0D TIF> >0x28 TIF> >0x0D TIF> >0x21 TIF> >0x0D TIF> >0x21 TIF> >0x0D TIF> >0x28 TIF> >0x0D TIF> >0x21 TIF> >0x0D TIF> >0x21 TIF> >0x0D TIF> >0x28 TIF> >0x0D TIF> >0x28 TIF> >0x0D TIF> >0x28 TIF> >0x0D TIF> >0x21 TIF> >0x0D TIF> >0x21 TIF> >0x0D TIF> >0x28 TIF> >0x0D TIF> >0x28 TIF>
 >0x0D TIF> >0x28 TIF> >0x0D TIF> >0x21 TIF> >0x0D TIF> >0x21 TIF> >0x0D TIF> >0x28 TIF> >0x0D TIF> >0x21 TIF> >0x0D TIF> >0x21 TIF> >0x0D TIF> >0x28 TIF> >0x0D TIF> >0x21 TIF> >0x0D TIF> >0x21 TIF> >0x10B TIF>Found SW-DP with ID 0x2BA01477 >0x0D TIF> >0x28 TIF> >0x0D TIF> >0x28 TIF> >0x0D TIF> >0x28 TIF> >0x0D TIF> >0x28 TIF> >0x0D TIF> >0x21 TIF> >0x0D TIF> >0x28 TIF>Scanning AP map to find all available APs >0x0D TIF> >0x28 TIF> >0x0D TIF> >0x21 TIF> >0x0D TIF> >0x21 TIF> >0x0D TIF> >0x28 TIF>
 >0x0D TIF> >0x21 TIF> >0x0D TIF> >0x21 TIF>AP[1]: Stopped AP scan as end of AP map has been reachedAP[0]: AHB-AP (IDR: 0x24770011)Iterating through AP map to find AHB-AP to use >0x42 TIF> >0x28 TIF> >0x0D TIF> >0x28 TIF> >0x0D TIF> >0x21 TIF> >0x0D TIF> >0x21 TIF> >0x42 TIF> >0x28 TIF> >0x0D TIF> >0x28 TIF> >0x0D TIF> >0x28 TIF> >0x0D TIF> >0x21 TIF> >0x0D TIF> >0x21 TIF>AP[0]: Core foundAP[0]: AHB-AP ROM base: 0xE00FF000 >0x0D TIF> >0x28 TIF> >0x0D TIF> >0x28 TIF> >0x0D TIF> >0x28 TIF> >0x0D TIF>
 >0x21 TIF> >0x0D TIF> >0x21 TIF>CPUID register: 0x410FC241. Implementer code: 0x41 (ARM)Found Cortex-M4 r0p1, Little endian. -- Max. mem block: 0x00010F28 -- CPU_ReadMem(4 bytes @ 0xE000EDF0) -- CPU_WriteMem(4 bytes @ 0xE000EDF0) -- CPU_ReadMem(4 bytes @ 0xE0002000)FPUnit: 6 code (BP) slots and 2 literal slots -- CPU_ReadMem(4 bytes @ 0xE000EDFC) -- CPU_WriteMem(4 bytes @ 0xE000EDFC) -- CPU_ReadMem(4 bytes @ 0xE0001000) -- CPU_WriteMem(4 bytes @ 0xE0001000) -- CPU_ReadMem(4 bytes @ 0xE000ED88)
 -- CPU_WriteMem(4 bytes @ 0xE000ED88) -- CPU_ReadMem(4 bytes @ 0xE000ED88) -- CPU_WriteMem(4 bytes @ 0xE000ED88)CoreSight components:ROMTbl[0] @ E00FF000 -- CPU_ReadMem(16 bytes @ 0xE00FF000) -- CPU_ReadMem(16 bytes @ 0xE000EFF0) -- CPU_ReadMem(16 bytes @ 0xE000EFE0)ROMTbl[0][0]: E000E000, CID: B105E00D, PID: 000BB00C SCS-M7 -- CPU_ReadMem(16 bytes @ 0xE0001FF0) -- CPU_ReadMem(16 bytes @ 0xE0001FE0)ROMTbl[0][1]: E0001000, CID: B105E00D, PID: 003BB002 DWT -- CPU_ReadMem(16 bytes @ 0xE0002FF0)
 -- CPU_ReadMem(16 bytes @ 0xE0002FE0)ROMTbl[0][2]: E0002000, CID: B105E00D, PID: 002BB003 FPB -- CPU_ReadMem(16 bytes @ 0xE0000FF0) -- CPU_ReadMem(16 bytes @ 0xE0000FE0)ROMTbl[0][3]: E0000000, CID: B105E00D, PID: 003BB001 ITM -- CPU_ReadMem(16 bytes @ 0xE00FF010) -- CPU_ReadMem(16 bytes @ 0xE0040FF0) -- CPU_ReadMem(16 bytes @ 0xE0040FE0)ROMTbl[0][4]: E0040000, CID: B105900D, PID: 000BB9A1 TPIU -- CPU_ReadMem(16 bytes @ 0xE0041FF0) -- CPU_ReadMem(16 bytes @ 0xE0041FE0)
ROMTbl[0][5]: E0041000, CID: B105900D, PID: 000BB925 ETM >0x0D TIF> >0x21 TIF>  returns 0x2BA01477 (0268ms, 0380ms total)
T6244 008:059 JLINK_GetDLLVersion()  returns 64600 (0000ms, 0380ms total)
T6244 008:059 JLINK_CORE_GetFound()  returns 0xE0000FF (0000ms, 0380ms total)
T6244 008:059 JLINK_GetDebugInfo(0x100 = JLINKARM_ROM_TABLE_ADDR_INDEX) -- Value=0xE00FF000  returns 0x00 (0000ms, 0380ms total)
T6244 008:061 JLINK_GetDebugInfo(0x100 = JLINKARM_ROM_TABLE_ADDR_INDEX) -- Value=0xE00FF000  returns 0x00 (0000ms, 0380ms total)
T6244 008:061 JLINK_GetDebugInfo(0x101 = JLINKARM_DEBUG_INFO_ETM_ADDR_INDEX) -- Value=0xE0041000  returns 0x00 (0001ms, 0381ms total)
T6244 008:062 JLINK_ReadMemEx(0xE0041FD0, 0x0020 Bytes, ..., Flags = 0x02000004) -- CPU_ReadMem(32 bytes @ 0xE0041FD0) - Data: 04 00 00 00 00 00 00 00 00 00 00 00 00 00 00 00 ...  returns 0x20 (0001ms, 0382ms total)
T6244 008:063 JLINK_GetDebugInfo(0x102 = JLINKARM_DEBUG_INFO_MTB_ADDR_INDEX) -- Value=0x00000000  returns 0x00 (0000ms, 0382ms total)
T6244 008:063 JLINK_GetDebugInfo(0x103 = JLINKARM_DEBUG_INFO_TPIU_ADDR_INDEX) -- Value=0xE0040000  returns 0x00 (0000ms, 0382ms total)
T6244 008:063 JLINK_GetDebugInfo(0x104 = JLINKARM_DEBUG_INFO_ITM_ADDR_INDEX) -- Value=0xE0000000  returns 0x00 (0000ms, 0382ms total)
T6244 008:063 JLINK_GetDebugInfo(0x105 = JLINKARM_DEBUG_INFO_DWT_ADDR_INDEX) -- Value=0xE0001000  returns 0x00 (0000ms, 0382ms total)
T6244 008:063 JLINK_GetDebugInfo(0x106 = JLINKARM_DEBUG_INFO_FPB_ADDR_INDEX) -- Value=0xE0002000  returns 0x00 (0000ms, 0382ms total)
T6244 008:063 JLINK_GetDebugInfo(0x107 = JLINKARM_DEBUG_INFO_NVIC_ADDR_INDEX) -- Value=0xE000E000  returns 0x00 (0000ms, 0382ms total)
T6244 008:063 JLINK_GetDebugInfo(0x10C = JLINKARM_DEBUG_INFO_DBG_ADDR_INDEX) -- Value=0xE000EDF0  returns 0x00 (0000ms, 0382ms total)
T6244 008:063 JLINK_GetDebugInfo(0x01 = Unknown) -- Value=0x00000001  returns 0x00 (0000ms, 0382ms total)
T6244 008:063 JLINK_ReadMemU32(0xE000ED00, 0x0001 Items, ...) -- CPU_ReadMem(4 bytes @ 0xE000ED00) - Data: 41 C2 0F 41  returns 1 (0001ms, 0383ms total)
T6244 008:064 JLINK_GetDebugInfo(0x10F = JLINKARM_DEBUG_INFO_HAS_CORTEX_M_SECURITY_EXT_INDEX) -- Value=0x00000000  returns 0x00 (0000ms, 0383ms total)
T6244 008:064 JLINK_SetResetType(JLINKARM_CM3_RESET_TYPE_NORMAL)  returns JLINKARM_CM3_RESET_TYPE_NORMAL (0000ms, 0383ms total)
T6244 008:064 JLINK_Reset() -- CPU is running -- CPU_WriteMem(4 bytes @ 0xE000EDF0) -- CPU is running -- CPU_WriteMem(4 bytes @ 0xE000EDFC)Reset: Halt core after reset via DEMCR.VC_CORERESET. >0x35 TIF>Reset: Reset device via AIRCR.SYSRESETREQ. -- CPU is running -- CPU_WriteMem(4 bytes @ 0xE000ED0C) >0x0D TIF> >0x28 TIF> -- CPU_ReadMem(4 bytes @ 0xE000EDF0) -- CPU_ReadMem(4 bytes @ 0xE000EDF0) -- CPU is running -- CPU_WriteMem(4 bytes @ 0xE000EDF0) -- CPU is running -- CPU_WriteMem(4 bytes @ 0xE000EDFC)
 -- CPU_ReadMem(4 bytes @ 0xE000EDF0) -- CPU_WriteMem(4 bytes @ 0xE0002000) -- CPU_ReadMem(4 bytes @ 0xE000EDFC) -- CPU_ReadMem(4 bytes @ 0xE0001000) (0080ms, 0463ms total)
T6244 008:144 JLINK_Halt()  returns 0x00 (0000ms, 0463ms total)
T6244 008:144 JLINK_ReadMemU32(0xE000EDF0, 0x0001 Items, ...) -- CPU_ReadMem(4 bytes @ 0xE000EDF0) - Data: 03 00 03 00  returns 1 (0000ms, 0463ms total)
T6244 008:144 JLINK_WriteU32(0xE000EDF0, 0xA05F0003) -- CPU_WriteMem(4 bytes @ 0xE000EDF0)  returns 0 (0001ms, 0464ms total)
T6244 008:145 JLINK_WriteU32(0xE000EDFC, 0x01000000) -- CPU_WriteMem(4 bytes @ 0xE000EDFC)  returns 0 (0000ms, 0464ms total)
T6244 008:159 JLINK_GetHWStatus(...)  returns 0x00 (0000ms, 0464ms total)
T6244 008:170 JLINK_GetNumBPUnits(Type = 0xFFFFFF00)  returns 0x06 (0000ms, 0464ms total)
T6244 008:170 JLINK_GetNumBPUnits(Type = 0xF0)  returns 0x2000 (0000ms, 0464ms total)
T6244 008:170 JLINK_GetNumWPUnits()  returns 0x04 (0000ms, 0464ms total)
T6244 008:178 JLINK_GetSpeed()  returns 0x1770 (0000ms, 0464ms total)
T6244 008:186 JLINK_ReadMemU32(0xE000E004, 0x0001 Items, ...) -- CPU_ReadMem(4 bytes @ 0xE000E004) - Data: 02 00 00 00  returns 1 (0001ms, 0465ms total)
T6244 008:187 JLINK_ReadMemU32(0xE000E004, 0x0001 Items, ...) -- CPU_ReadMem(4 bytes @ 0xE000E004) - Data: 02 00 00 00  returns 1 (0000ms, 0465ms total)
T6244 008:187 JLINK_WriteMemEx(0xE0001000, 0x001C Bytes, ..., Flags = 0x02000004) - Data: 01 00 00 00 00 00 00 00 00 00 00 00 00 00 00 00 ... -- CPU_WriteMem(28 bytes @ 0xE0001000)  returns 0x1C (0001ms, 0466ms total)
T6244 008:188 JLINK_Halt()  returns 0x00 (0000ms, 0466ms total)
T6244 008:188 JLINK_IsHalted()  returns TRUE (0000ms, 0466ms total)
T6244 008:194 JLINK_WriteMem(0x20000000, 0x0180 Bytes, ...) - Data: 00 BE 0A E0 0D 78 2D 06 68 40 08 24 40 00 00 D3 ... -- CPU_WriteMem(384 bytes @ 0x20000000)  returns 0x180 (0004ms, 0470ms total)
T6244 008:198 JLINK_WriteReg(R0, 0x08000000)  returns 0x00 (0000ms, 0470ms total)
T6244 008:198 JLINK_WriteReg(R1, 0x00B71B00)  returns 0x00 (0000ms, 0470ms total)
T6244 008:198 JLINK_WriteReg(R2, 0x00000001)  returns 0x00 (0000ms, 0470ms total)
T6244 008:198 JLINK_WriteReg(R3, 0x00000000)  returns 0x00 (0000ms, 0470ms total)
T6244 008:198 JLINK_WriteReg(R4, 0x00000000)  returns 0x00 (0000ms, 0470ms total)
T6244 008:198 JLINK_WriteReg(R5, 0x00000000)  returns 0x00 (0000ms, 0470ms total)
T6244 008:198 JLINK_WriteReg(R6, 0x00000000)  returns 0x00 (0000ms, 0470ms total)
T6244 008:198 JLINK_WriteReg(R7, 0x00000000)  returns 0x00 (0000ms, 0470ms total)
T6244 008:198 JLINK_WriteReg(R8, 0x00000000)  returns 0x00 (0000ms, 0470ms total)
T6244 008:198 JLINK_WriteReg(R9, 0x2000017C)  returns 0x00 (0000ms, 0470ms total)
T6244 008:198 JLINK_WriteReg(R10, 0x00000000)  returns 0x00 (0000ms, 0470ms total)
T6244 008:198 JLINK_WriteReg(R11, 0x00000000)  returns 0x00 (0000ms, 0470ms total)
T6244 008:198 JLINK_WriteReg(R12, 0x00000000)  returns 0x00 (0000ms, 0470ms total)
T6244 008:198 JLINK_WriteReg(R13 (SP), 0x20001000)  returns 0x00 (0000ms, 0470ms total)
T6244 008:199 JLINK_WriteReg(R14, 0x20000001)  returns 0x00 (0000ms, 0470ms total)
T6244 008:199 JLINK_WriteReg(R15 (PC), 0x20000054)  returns 0x00 (0000ms, 0470ms total)
T6244 008:199 JLINK_WriteReg(XPSR, 0x01000000)  returns 0x00 (0000ms, 0470ms total)
T6244 008:199 JLINK_WriteReg(MSP, 0x20001000)  returns 0x00 (0000ms, 0470ms total)
T6244 008:199 JLINK_WriteReg(PSP, 0x20001000)  returns 0x00 (0000ms, 0470ms total)
T6244 008:199 JLINK_WriteReg(CFBP, 0x00000000)  returns 0x00 (0000ms, 0470ms total)
T6244 008:199 JLINK_SetBPEx(Addr = 0x20000000, Type = 0xFFFFFFF2) -- CPU_ReadMem(2 bytes @ 0x20000000)  returns 0x00000001 (0000ms, 0470ms total)
T6244 008:199 JLINK_Go() -- CPU_WriteMem(2 bytes @ 0x20000000) -- CPU_ReadMem(4 bytes @ 0xE0001000) -- CPU_WriteMem(4 bytes @ 0xE0002008) -- CPU_WriteMem(4 bytes @ 0xE000200C) -- CPU_WriteMem(4 bytes @ 0xE0002010) -- CPU_WriteMem(4 bytes @ 0xE0002014) -- CPU_WriteMem(4 bytes @ 0xE0002018) -- CPU_WriteMem(4 bytes @ 0xE000201C) -- CPU_WriteMem(4 bytes @ 0xE0001004) (0006ms, 0476ms total)
T6244 008:205 JLINK_IsHalted() -- CPU_ReadMem(2 bytes @ 0x20000000)  returns TRUE (0003ms, 0479ms total)
T6244 008:208 JLINK_ReadReg(R15 (PC))  returns 0x20000000 (0000ms, 0476ms total)
T6244 008:208 JLINK_ClrBPEx(BPHandle = 0x00000001)  returns 0x00 (0000ms, 0476ms total)
T6244 008:209 JLINK_ReadReg(R0)  returns 0x00000000 (0000ms, 0476ms total)
T6244 008:209 JLINK_WriteReg(R0, 0x08000000)  returns 0x00 (0000ms, 0476ms total)
T6244 008:209 JLINK_WriteReg(R1, 0x00004000)  returns 0x00 (0000ms, 0476ms total)
T6244 008:209 JLINK_WriteReg(R2, 0x000000FF)  returns 0x00 (0000ms, 0476ms total)
T6244 008:209 JLINK_WriteReg(R3, 0x00000000)  returns 0x00 (0000ms, 0476ms total)
T6244 008:209 JLINK_WriteReg(R4, 0x00000000)  returns 0x00 (0000ms, 0476ms total)
T6244 008:209 JLINK_WriteReg(R5, 0x00000000)  returns 0x00 (0000ms, 0476ms total)
T6244 008:209 JLINK_WriteReg(R6, 0x00000000)  returns 0x00 (0000ms, 0476ms total)
T6244 008:209 JLINK_WriteReg(R7, 0x00000000)  returns 0x00 (0000ms, 0476ms total)
T6244 008:209 JLINK_WriteReg(R8, 0x00000000)  returns 0x00 (0000ms, 0476ms total)
T6244 008:209 JLINK_WriteReg(R9, 0x2000017C)  returns 0x00 (0000ms, 0476ms total)
T6244 008:209 JLINK_WriteReg(R10, 0x00000000)  returns 0x00 (0000ms, 0476ms total)
T6244 008:209 JLINK_WriteReg(R11, 0x00000000)  returns 0x00 (0000ms, 0476ms total)
T6244 008:209 JLINK_WriteReg(R12, 0x00000000)  returns 0x00 (0000ms, 0476ms total)
T6244 008:209 JLINK_WriteReg(R13 (SP), 0x20001000)  returns 0x00 (0000ms, 0476ms total)
T6244 008:209 JLINK_WriteReg(R14, 0x20000001)  returns 0x00 (0000ms, 0476ms total)
T6244 008:210 JLINK_WriteReg(R15 (PC), 0x20000020)  returns 0x00 (0000ms, 0477ms total)
T6244 008:210 JLINK_WriteReg(XPSR, 0x01000000)  returns 0x00 (0000ms, 0477ms total)
T6244 008:210 JLINK_WriteReg(MSP, 0x20001000)  returns 0x00 (0000ms, 0477ms total)
T6244 008:210 JLINK_WriteReg(PSP, 0x20001000)  returns 0x00 (0000ms, 0477ms total)
T6244 008:210 JLINK_WriteReg(CFBP, 0x00000000)  returns 0x00 (0000ms, 0477ms total)
T6244 008:210 JLINK_SetBPEx(Addr = 0x20000000, Type = 0xFFFFFFF2)  returns 0x00000002 (0000ms, 0477ms total)
T6244 008:210 JLINK_Go() -- CPU_ReadMem(4 bytes @ 0xE0001000) (0003ms, 0480ms total)
T6244 008:213 JLINK_IsHalted()  returns FALSE (0001ms, 0481ms total)
T6244 008:264 JLINK_IsHalted() -- CPU_ReadMem(2 bytes @ 0x20000000)  returns TRUE (0003ms, 0483ms total)
T6244 008:267 JLINK_ReadReg(R15 (PC))  returns 0x20000000 (0000ms, 0480ms total)
T6244 008:267 JLINK_ClrBPEx(BPHandle = 0x00000002)  returns 0x00 (0000ms, 0480ms total)
T6244 008:267 JLINK_ReadReg(R0)  returns 0x00000000 (0000ms, 0480ms total)
T6244 008:268 JLINK_WriteReg(R0, 0x08004000)  returns 0x00 (0000ms, 0480ms total)
T6244 008:268 JLINK_WriteReg(R1, 0x00004000)  returns 0x00 (0000ms, 0480ms total)
T6244 008:268 JLINK_WriteReg(R2, 0x000000FF)  returns 0x00 (0000ms, 0480ms total)
T6244 008:268 JLINK_WriteReg(R3, 0x00000000)  returns 0x00 (0000ms, 0480ms total)
T6244 008:268 JLINK_WriteReg(R4, 0x00000000)  returns 0x00 (0000ms, 0480ms total)
T6244 008:268 JLINK_WriteReg(R5, 0x00000000)  returns 0x00 (0000ms, 0480ms total)
T6244 008:268 JLINK_WriteReg(R6, 0x00000000)  returns 0x00 (0000ms, 0480ms total)
T6244 008:268 JLINK_WriteReg(R7, 0x00000000)  returns 0x00 (0000ms, 0480ms total)
T6244 008:268 JLINK_WriteReg(R8, 0x00000000)  returns 0x00 (0000ms, 0480ms total)
T6244 008:268 JLINK_WriteReg(R9, 0x2000017C)  returns 0x00 (0000ms, 0480ms total)
T6244 008:268 JLINK_WriteReg(R10, 0x00000000)  returns 0x00 (0000ms, 0480ms total)
T6244 008:268 JLINK_WriteReg(R11, 0x00000000)  returns 0x00 (0000ms, 0480ms total)
T6244 008:268 JLINK_WriteReg(R12, 0x00000000)  returns 0x00 (0000ms, 0480ms total)
T6244 008:268 JLINK_WriteReg(R13 (SP), 0x20001000)  returns 0x00 (0000ms, 0480ms total)
T6244 008:268 JLINK_WriteReg(R14, 0x20000001)  returns 0x00 (0000ms, 0480ms total)
T6244 008:268 JLINK_WriteReg(R15 (PC), 0x20000020)  returns 0x00 (0000ms, 0480ms total)
T6244 008:268 JLINK_WriteReg(XPSR, 0x01000000)  returns 0x00 (0000ms, 0480ms total)
T6244 008:268 JLINK_WriteReg(MSP, 0x20001000)  returns 0x00 (0000ms, 0480ms total)
T6244 008:268 JLINK_WriteReg(PSP, 0x20001000)  returns 0x00 (0000ms, 0480ms total)
T6244 008:268 JLINK_WriteReg(CFBP, 0x00000000)  returns 0x00 (0000ms, 0480ms total)
T6244 008:268 JLINK_SetBPEx(Addr = 0x20000000, Type = 0xFFFFFFF2)  returns 0x00000003 (0000ms, 0480ms total)
T6244 008:268 JLINK_Go() -- CPU_ReadMem(4 bytes @ 0xE0001000) (0004ms, 0484ms total)
T6244 008:272 JLINK_IsHalted()  returns FALSE (0000ms, 0484ms total)
T6244 008:275 JLINK_IsHalted()  returns FALSE (0001ms, 0485ms total)
T6244 008:279 JLINK_IsHalted()  returns FALSE (0000ms, 0484ms total)
T6244 008:282 JLINK_IsHalted()  returns FALSE (0001ms, 0485ms total)
T6244 008:285 JLINK_IsHalted()  returns FALSE (0001ms, 0485ms total)
T6244 008:289 JLINK_IsHalted() -- CPU_ReadMem(2 bytes @ 0x20000000)  returns TRUE (0004ms, 0488ms total)
T6244 008:293 JLINK_ReadReg(R15 (PC))  returns 0x20000000 (0000ms, 0484ms total)
T6244 008:293 JLINK_ClrBPEx(BPHandle = 0x00000003)  returns 0x00 (0000ms, 0484ms total)
T6244 008:293 JLINK_ReadReg(R0)  returns 0x00000000 (0000ms, 0484ms total)
T6244 008:294 JLINK_WriteReg(R0, 0x08008000)  returns 0x00 (0000ms, 0484ms total)
T6244 008:294 JLINK_WriteReg(R1, 0x00004000)  returns 0x00 (0000ms, 0484ms total)
T6244 008:294 JLINK_WriteReg(R2, 0x000000FF)  returns 0x00 (0000ms, 0484ms total)
T6244 008:294 JLINK_WriteReg(R3, 0x00000000)  returns 0x00 (0000ms, 0484ms total)
T6244 008:294 JLINK_WriteReg(R4, 0x00000000)  returns 0x00 (0000ms, 0484ms total)
T6244 008:294 JLINK_WriteReg(R5, 0x00000000)  returns 0x00 (0000ms, 0484ms total)
T6244 008:294 JLINK_WriteReg(R6, 0x00000000)  returns 0x00 (0000ms, 0484ms total)
T6244 008:294 JLINK_WriteReg(R7, 0x00000000)  returns 0x00 (0000ms, 0484ms total)
T6244 008:294 JLINK_WriteReg(R8, 0x00000000)  returns 0x00 (0000ms, 0484ms total)
T6244 008:294 JLINK_WriteReg(R9, 0x2000017C)  returns 0x00 (0000ms, 0484ms total)
T6244 008:294 JLINK_WriteReg(R10, 0x00000000)  returns 0x00 (0000ms, 0484ms total)
T6244 008:294 JLINK_WriteReg(R11, 0x00000000)  returns 0x00 (0000ms, 0484ms total)
T6244 008:294 JLINK_WriteReg(R12, 0x00000000)  returns 0x00 (0000ms, 0484ms total)
T6244 008:294 JLINK_WriteReg(R13 (SP), 0x20001000)  returns 0x00 (0000ms, 0484ms total)
T6244 008:294 JLINK_WriteReg(R14, 0x20000001)  returns 0x00 (0000ms, 0484ms total)
T6244 008:294 JLINK_WriteReg(R15 (PC), 0x20000020)  returns 0x00 (0000ms, 0484ms total)
T6244 008:294 JLINK_WriteReg(XPSR, 0x01000000)  returns 0x00 (0000ms, 0484ms total)
T6244 008:294 JLINK_WriteReg(MSP, 0x20001000)  returns 0x00 (0000ms, 0484ms total)
T6244 008:294 JLINK_WriteReg(PSP, 0x20001000)  returns 0x00 (0000ms, 0484ms total)
T6244 008:294 JLINK_WriteReg(CFBP, 0x00000000)  returns 0x00 (0000ms, 0484ms total)
T6244 008:294 JLINK_SetBPEx(Addr = 0x20000000, Type = 0xFFFFFFF2)  returns 0x00000004 (0000ms, 0484ms total)
T6244 008:294 JLINK_Go() -- CPU_ReadMem(4 bytes @ 0xE0001000) (0004ms, 0488ms total)
T6244 008:298 JLINK_IsHalted()  returns FALSE (0001ms, 0489ms total)
T6244 008:304 JLINK_IsHalted()  returns FALSE (0000ms, 0488ms total)
T6244 008:307 JLINK_IsHalted()  returns FALSE (0001ms, 0489ms total)
T6244 008:310 JLINK_IsHalted()  returns FALSE (0001ms, 0489ms total)
T6244 008:313 JLINK_IsHalted() -- CPU_ReadMem(2 bytes @ 0x20000000)  returns TRUE (0003ms, 0491ms total)
T6244 008:316 JLINK_ReadReg(R15 (PC))  returns 0x20000000 (0000ms, 0488ms total)
T6244 008:316 JLINK_ClrBPEx(BPHandle = 0x00000004)  returns 0x00 (0000ms, 0488ms total)
T6244 008:316 JLINK_ReadReg(R0)  returns 0x00000000 (0000ms, 0488ms total)
T6244 008:317 JLINK_WriteReg(R0, 0x00000001)  returns 0x00 (0000ms, 0488ms total)
T6244 008:317 JLINK_WriteReg(R1, 0x00004000)  returns 0x00 (0000ms, 0488ms total)
T6244 008:317 JLINK_WriteReg(R2, 0x000000FF)  returns 0x00 (0000ms, 0488ms total)
T6244 008:317 JLINK_WriteReg(R3, 0x00000000)  returns 0x00 (0000ms, 0488ms total)
T6244 008:317 JLINK_WriteReg(R4, 0x00000000)  returns 0x00 (0000ms, 0488ms total)
T6244 008:317 JLINK_WriteReg(R5, 0x00000000)  returns 0x00 (0000ms, 0488ms total)
T6244 008:317 JLINK_WriteReg(R6, 0x00000000)  returns 0x00 (0000ms, 0488ms total)
T6244 008:317 JLINK_WriteReg(R7, 0x00000000)  returns 0x00 (0000ms, 0488ms total)
T6244 008:317 JLINK_WriteReg(R8, 0x00000000)  returns 0x00 (0000ms, 0488ms total)
T6244 008:317 JLINK_WriteReg(R9, 0x2000017C)  returns 0x00 (0000ms, 0488ms total)
T6244 008:317 JLINK_WriteReg(R10, 0x00000000)  returns 0x00 (0000ms, 0488ms total)
T6244 008:317 JLINK_WriteReg(R11, 0x00000000)  returns 0x00 (0000ms, 0488ms total)
T6244 008:317 JLINK_WriteReg(R12, 0x00000000)  returns 0x00 (0000ms, 0488ms total)
T6244 008:317 JLINK_WriteReg(R13 (SP), 0x20001000)  returns 0x00 (0000ms, 0488ms total)
T6244 008:317 JLINK_WriteReg(R14, 0x20000001)  returns 0x00 (0000ms, 0488ms total)
T6244 008:317 JLINK_WriteReg(R15 (PC), 0x20000082)  returns 0x00 (0000ms, 0488ms total)
T6244 008:317 JLINK_WriteReg(XPSR, 0x01000000)  returns 0x00 (0000ms, 0488ms total)
T6244 008:317 JLINK_WriteReg(MSP, 0x20001000)  returns 0x00 (0000ms, 0488ms total)
T6244 008:317 JLINK_WriteReg(PSP, 0x20001000)  returns 0x00 (0000ms, 0488ms total)
T6244 008:317 JLINK_WriteReg(CFBP, 0x00000000)  returns 0x00 (0000ms, 0488ms total)
T6244 008:317 JLINK_SetBPEx(Addr = 0x20000000, Type = 0xFFFFFFF2)  returns 0x00000005 (0000ms, 0488ms total)
T6244 008:317 JLINK_Go() -- CPU_ReadMem(4 bytes @ 0xE0001000) (0004ms, 0492ms total)
T6244 008:321 JLINK_IsHalted() -- CPU_ReadMem(2 bytes @ 0x20000000)  returns TRUE (0003ms, 0495ms total)
T6244 008:324 JLINK_ReadReg(R15 (PC))  returns 0x20000000 (0000ms, 0492ms total)
T6244 008:324 JLINK_ClrBPEx(BPHandle = 0x00000005)  returns 0x00 (0000ms, 0492ms total)
T6244 008:324 JLINK_ReadReg(R0)  returns 0x00000000 (0000ms, 0492ms total)
T6244 008:380 JLINK_WriteMem(0x20000000, 0x0180 Bytes, ...) - Data: 00 BE 0A E0 0D 78 2D 06 68 40 08 24 40 00 00 D3 ... -- CPU_WriteMem(384 bytes @ 0x20000000)  returns 0x180 (0003ms, 0495ms total)
T6244 008:383 JLINK_WriteReg(R0, 0x08000000)  returns 0x00 (0000ms, 0495ms total)
T6244 008:383 JLINK_WriteReg(R1, 0x00B71B00)  returns 0x00 (0000ms, 0495ms total)
T6244 008:383 JLINK_WriteReg(R2, 0x00000002)  returns 0x00 (0000ms, 0495ms total)
T6244 008:383 JLINK_WriteReg(R3, 0x00000000)  returns 0x00 (0000ms, 0495ms total)
T6244 008:383 JLINK_WriteReg(R4, 0x00000000)  returns 0x00 (0000ms, 0495ms total)
T6244 008:383 JLINK_WriteReg(R5, 0x00000000)  returns 0x00 (0000ms, 0495ms total)
T6244 008:383 JLINK_WriteReg(R6, 0x00000000)  returns 0x00 (0000ms, 0495ms total)
T6244 008:383 JLINK_WriteReg(R7, 0x00000000)  returns 0x00 (0000ms, 0495ms total)
T6244 008:383 JLINK_WriteReg(R8, 0x00000000)  returns 0x00 (0000ms, 0495ms total)
T6244 008:383 JLINK_WriteReg(R9, 0x2000017C)  returns 0x00 (0000ms, 0495ms total)
T6244 008:383 JLINK_WriteReg(R10, 0x00000000)  returns 0x00 (0000ms, 0495ms total)
T6244 008:383 JLINK_WriteReg(R11, 0x00000000)  returns 0x00 (0000ms, 0495ms total)
T6244 008:383 JLINK_WriteReg(R12, 0x00000000)  returns 0x00 (0000ms, 0495ms total)
T6244 008:383 JLINK_WriteReg(R13 (SP), 0x20001000)  returns 0x00 (0000ms, 0495ms total)
T6244 008:383 JLINK_WriteReg(R14, 0x20000001)  returns 0x00 (0000ms, 0495ms total)
T6244 008:383 JLINK_WriteReg(R15 (PC), 0x20000054)  returns 0x00 (0000ms, 0495ms total)
T6244 008:383 JLINK_WriteReg(XPSR, 0x01000000)  returns 0x00 (0000ms, 0495ms total)
T6244 008:383 JLINK_WriteReg(MSP, 0x20001000)  returns 0x00 (0000ms, 0495ms total)
T6244 008:383 JLINK_WriteReg(PSP, 0x20001000)  returns 0x00 (0000ms, 0495ms total)
T6244 008:383 JLINK_WriteReg(CFBP, 0x00000000)  returns 0x00 (0000ms, 0495ms total)
T6244 008:383 JLINK_SetBPEx(Addr = 0x20000000, Type = 0xFFFFFFF2) -- CPU_ReadMem(2 bytes @ 0x20000000)  returns 0x00000006 (0002ms, 0497ms total)
T6244 008:385 JLINK_Go() -- CPU_WriteMem(2 bytes @ 0x20000000) -- CPU_ReadMem(4 bytes @ 0xE0001000) (0005ms, 0502ms total)
T6244 008:390 JLINK_IsHalted() -- CPU_ReadMem(2 bytes @ 0x20000000)  returns TRUE (0004ms, 0506ms total)
T6244 008:394 JLINK_ReadReg(R15 (PC))  returns 0x20000000 (0000ms, 0502ms total)
T6244 008:394 JLINK_ClrBPEx(BPHandle = 0x00000006)  returns 0x00 (0000ms, 0502ms total)
T6244 008:394 JLINK_ReadReg(R0)  returns 0x00000000 (0000ms, 0502ms total)
T6244 008:395 JLINK_WriteMem(0x20000180, 0x0280 Bytes, ...) - Data: 78 B5 01 20 15 03 00 08 F9 29 00 08 E1 28 00 08 ... -- CPU_WriteMem(640 bytes @ 0x20000180)  returns 0x280 (0003ms, 0505ms total)
T6244 008:398 JLINK_WriteMem(0x20000400, 0x0180 Bytes, ...) - Data: FC 84 78 29 00 F0 DD 80 E9 29 00 F0 97 84 E4 29 ... -- CPU_WriteMem(384 bytes @ 0x20000400)  returns 0x180 (0003ms, 0508ms total)
T6244 008:401 JLINK_WriteReg(R0, 0x08000000)  returns 0x00 (0000ms, 0508ms total)
T6244 008:401 JLINK_WriteReg(R1, 0x00000400)  returns 0x00 (0000ms, 0508ms total)
T6244 008:401 JLINK_WriteReg(R2, 0x20000180)  returns 0x00 (0000ms, 0508ms total)
T6244 008:401 JLINK_WriteReg(R3, 0x00000000)  returns 0x00 (0000ms, 0508ms total)
T6244 008:401 JLINK_WriteReg(R4, 0x00000000)  returns 0x00 (0000ms, 0508ms total)
T6244 008:401 JLINK_WriteReg(R5, 0x00000000)  returns 0x00 (0000ms, 0508ms total)
T6244 008:401 JLINK_WriteReg(R6, 0x00000000)  returns 0x00 (0000ms, 0508ms total)
T6244 008:401 JLINK_WriteReg(R7, 0x00000000)  returns 0x00 (0000ms, 0508ms total)
T6244 008:401 JLINK_WriteReg(R8, 0x00000000)  returns 0x00 (0000ms, 0508ms total)
T6244 008:401 JLINK_WriteReg(R9, 0x2000017C)  returns 0x00 (0000ms, 0508ms total)
T6244 008:401 JLINK_WriteReg(R10, 0x00000000)  returns 0x00 (0000ms, 0508ms total)
T6244 008:401 JLINK_WriteReg(R11, 0x00000000)  returns 0x00 (0000ms, 0508ms total)
T6244 008:401 JLINK_WriteReg(R12, 0x00000000)  returns 0x00 (0000ms, 0508ms total)
T6244 008:401 JLINK_WriteReg(R13 (SP), 0x20001000)  returns 0x00 (0000ms, 0508ms total)
T6244 008:401 JLINK_WriteReg(R14, 0x20000001)  returns 0x00 (0000ms, 0508ms total)
T6244 008:401 JLINK_WriteReg(R15 (PC), 0x20000108)  returns 0x00 (0000ms, 0508ms total)
T6244 008:401 JLINK_WriteReg(XPSR, 0x01000000)  returns 0x00 (0000ms, 0508ms total)
T6244 008:401 JLINK_WriteReg(MSP, 0x20001000)  returns 0x00 (0000ms, 0508ms total)
T6244 008:401 JLINK_WriteReg(PSP, 0x20001000)  returns 0x00 (0000ms, 0508ms total)
T6244 008:401 JLINK_WriteReg(CFBP, 0x00000000)  returns 0x00 (0000ms, 0508ms total)
T6244 008:401 JLINK_SetBPEx(Addr = 0x20000000, Type = 0xFFFFFFF2)  returns 0x00000007 (0000ms, 0508ms total)
T6244 008:401 JLINK_Go() -- CPU_ReadMem(4 bytes @ 0xE0001000) (0003ms, 0511ms total)
T6244 008:404 JLINK_IsHalted()  returns FALSE (0001ms, 0512ms total)
T6244 008:411 JLINK_IsHalted() -- CPU_ReadMem(2 bytes @ 0x20000000)  returns TRUE (0003ms, 0514ms total)
T6244 008:414 JLINK_ReadReg(R15 (PC))  returns 0x20000000 (0000ms, 0511ms total)
T6244 008:414 JLINK_ClrBPEx(BPHandle = 0x00000007)  returns 0x00 (0000ms, 0511ms total)
T6244 008:414 JLINK_ReadReg(R0)  returns 0x00000000 (0001ms, 0512ms total)
T6244 008:415 JLINK_WriteMem(0x20000180, 0x0280 Bytes, ...) - Data: 0E 34 00 21 00 F1 24 06 08 E0 02 F0 0F 07 12 09 ... -- CPU_WriteMem(640 bytes @ 0x20000180)  returns 0x280 (0004ms, 0516ms total)
T6244 008:419 JLINK_WriteMem(0x20000400, 0x0180 Bytes, ...) - Data: 13 F0 FF 01 02 F8 01 1B 0D D0 1B 0A F8 E7 11 F8 ... -- CPU_WriteMem(384 bytes @ 0x20000400)  returns 0x180 (0002ms, 0518ms total)
T6244 008:421 JLINK_WriteReg(R0, 0x08000400)  returns 0x00 (0000ms, 0518ms total)
T6244 008:421 JLINK_WriteReg(R1, 0x00000400)  returns 0x00 (0000ms, 0518ms total)
T6244 008:421 JLINK_WriteReg(R2, 0x20000180)  returns 0x00 (0000ms, 0518ms total)
T6244 008:421 JLINK_WriteReg(R3, 0x00000000)  returns 0x00 (0000ms, 0518ms total)
T6244 008:421 JLINK_WriteReg(R4, 0x00000000)  returns 0x00 (0000ms, 0518ms total)
T6244 008:421 JLINK_WriteReg(R5, 0x00000000)  returns 0x00 (0000ms, 0518ms total)
T6244 008:421 JLINK_WriteReg(R6, 0x00000000)  returns 0x00 (0000ms, 0518ms total)
T6244 008:421 JLINK_WriteReg(R7, 0x00000000)  returns 0x00 (0000ms, 0518ms total)
T6244 008:421 JLINK_WriteReg(R8, 0x00000000)  returns 0x00 (0000ms, 0518ms total)
T6244 008:421 JLINK_WriteReg(R9, 0x2000017C)  returns 0x00 (0000ms, 0518ms total)
T6244 008:421 JLINK_WriteReg(R10, 0x00000000)  returns 0x00 (0000ms, 0518ms total)
T6244 008:421 JLINK_WriteReg(R11, 0x00000000)  returns 0x00 (0000ms, 0518ms total)
T6244 008:421 JLINK_WriteReg(R12, 0x00000000)  returns 0x00 (0000ms, 0518ms total)
T6244 008:421 JLINK_WriteReg(R13 (SP), 0x20001000)  returns 0x00 (0000ms, 0518ms total)
T6244 008:421 JLINK_WriteReg(R14, 0x20000001)  returns 0x00 (0000ms, 0518ms total)
T6244 008:421 JLINK_WriteReg(R15 (PC), 0x20000108)  returns 0x00 (0000ms, 0518ms total)
T6244 008:421 JLINK_WriteReg(XPSR, 0x01000000)  returns 0x00 (0000ms, 0518ms total)
T6244 008:421 JLINK_WriteReg(MSP, 0x20001000)  returns 0x00 (0000ms, 0518ms total)
T6244 008:421 JLINK_WriteReg(PSP, 0x20001000)  returns 0x00 (0000ms, 0518ms total)
T6244 008:421 JLINK_WriteReg(CFBP, 0x00000000)  returns 0x00 (0000ms, 0518ms total)
T6244 008:421 JLINK_SetBPEx(Addr = 0x20000000, Type = 0xFFFFFFF2)  returns 0x00000008 (0000ms, 0518ms total)
T6244 008:421 JLINK_Go() -- CPU_ReadMem(4 bytes @ 0xE0001000) (0004ms, 0522ms total)
T6244 008:425 JLINK_IsHalted()  returns FALSE (0000ms, 0522ms total)
T6244 008:434 JLINK_IsHalted() -- CPU_ReadMem(2 bytes @ 0x20000000)  returns TRUE (0003ms, 0525ms total)
T6244 008:437 JLINK_ReadReg(R15 (PC))  returns 0x20000000 (0000ms, 0522ms total)
T6244 008:437 JLINK_ClrBPEx(BPHandle = 0x00000008)  returns 0x00 (0000ms, 0522ms total)
T6244 008:437 JLINK_ReadReg(R0)  returns 0x00000000 (0000ms, 0522ms total)
T6244 008:437 JLINK_WriteMem(0x20000180, 0x0280 Bytes, ...) - Data: 70 47 00 00 4F F0 01 3C 50 F8 04 2B 51 F8 04 3B ... -- CPU_WriteMem(640 bytes @ 0x20000180)  returns 0x280 (0005ms, 0527ms total)
T6244 008:442 JLINK_WriteMem(0x20000400, 0x0180 Bytes, ...) - Data: 01 D5 08 70 0A E0 D3 05 01 D5 08 80 06 E0 13 06 ... -- CPU_WriteMem(384 bytes @ 0x20000400)  returns 0x180 (0002ms, 0529ms total)
T6244 008:444 JLINK_WriteReg(R0, 0x08000800)  returns 0x00 (0000ms, 0529ms total)
T6244 008:444 JLINK_WriteReg(R1, 0x00000400)  returns 0x00 (0000ms, 0529ms total)
T6244 008:444 JLINK_WriteReg(R2, 0x20000180)  returns 0x00 (0000ms, 0529ms total)
T6244 008:444 JLINK_WriteReg(R3, 0x00000000)  returns 0x00 (0000ms, 0529ms total)
T6244 008:444 JLINK_WriteReg(R4, 0x00000000)  returns 0x00 (0000ms, 0529ms total)
T6244 008:444 JLINK_WriteReg(R5, 0x00000000)  returns 0x00 (0000ms, 0529ms total)
T6244 008:444 JLINK_WriteReg(R6, 0x00000000)  returns 0x00 (0000ms, 0529ms total)
T6244 008:444 JLINK_WriteReg(R7, 0x00000000)  returns 0x00 (0000ms, 0529ms total)
T6244 008:444 JLINK_WriteReg(R8, 0x00000000)  returns 0x00 (0000ms, 0529ms total)
T6244 008:444 JLINK_WriteReg(R9, 0x2000017C)  returns 0x00 (0000ms, 0529ms total)
T6244 008:444 JLINK_WriteReg(R10, 0x00000000)  returns 0x00 (0000ms, 0529ms total)
T6244 008:444 JLINK_WriteReg(R11, 0x00000000)  returns 0x00 (0000ms, 0529ms total)
T6244 008:444 JLINK_WriteReg(R12, 0x00000000)  returns 0x00 (0000ms, 0529ms total)
T6244 008:444 JLINK_WriteReg(R13 (SP), 0x20001000)  returns 0x00 (0000ms, 0529ms total)
T6244 008:444 JLINK_WriteReg(R14, 0x20000001)  returns 0x00 (0000ms, 0529ms total)
T6244 008:444 JLINK_WriteReg(R15 (PC), 0x20000108)  returns 0x00 (0000ms, 0529ms total)
T6244 008:444 JLINK_WriteReg(XPSR, 0x01000000)  returns 0x00 (0000ms, 0529ms total)
T6244 008:444 JLINK_WriteReg(MSP, 0x20001000)  returns 0x00 (0000ms, 0529ms total)
T6244 008:444 JLINK_WriteReg(PSP, 0x20001000)  returns 0x00 (0000ms, 0529ms total)
T6244 008:444 JLINK_WriteReg(CFBP, 0x00000000)  returns 0x00 (0000ms, 0529ms total)
T6244 008:444 JLINK_SetBPEx(Addr = 0x20000000, Type = 0xFFFFFFF2)  returns 0x00000009 (0000ms, 0529ms total)
T6244 008:444 JLINK_Go() -- CPU_ReadMem(4 bytes @ 0xE0001000) (0003ms, 0532ms total)
T6244 008:447 JLINK_IsHalted()  returns FALSE (0001ms, 0533ms total)
T6244 008:451 JLINK_IsHalted()  returns FALSE (0000ms, 0532ms total)
T6244 008:454 JLINK_IsHalted() -- CPU_ReadMem(2 bytes @ 0x20000000)  returns TRUE (0003ms, 0535ms total)
T6244 008:457 JLINK_ReadReg(R15 (PC))  returns 0x20000000 (0000ms, 0532ms total)
T6244 008:457 JLINK_ClrBPEx(BPHandle = 0x00000009)  returns 0x00 (0000ms, 0532ms total)
T6244 008:457 JLINK_ReadReg(R0)  returns 0x00000000 (0000ms, 0532ms total)
T6244 008:458 JLINK_WriteMem(0x20000180, 0x0280 Bytes, ...) - Data: 00 24 08 F1 24 07 04 E0 00 F0 80 F8 30 32 3A 55 ... -- CPU_WriteMem(640 bytes @ 0x20000180)  returns 0x280 (0003ms, 0535ms total)
T6244 008:461 JLINK_WriteMem(0x20000400, 0x0180 Bytes, ...) - Data: 03 90 68 46 00 F0 D9 FE 09 E0 A0 F5 00 50 4A 46 ... -- CPU_WriteMem(384 bytes @ 0x20000400)  returns 0x180 (0003ms, 0538ms total)
T6244 008:464 JLINK_WriteReg(R0, 0x08000C00)  returns 0x00 (0000ms, 0538ms total)
T6244 008:464 JLINK_WriteReg(R1, 0x00000400)  returns 0x00 (0000ms, 0538ms total)
T6244 008:464 JLINK_WriteReg(R2, 0x20000180)  returns 0x00 (0000ms, 0538ms total)
T6244 008:464 JLINK_WriteReg(R3, 0x00000000)  returns 0x00 (0000ms, 0538ms total)
T6244 008:464 JLINK_WriteReg(R4, 0x00000000)  returns 0x00 (0000ms, 0538ms total)
T6244 008:464 JLINK_WriteReg(R5, 0x00000000)  returns 0x00 (0000ms, 0538ms total)
T6244 008:464 JLINK_WriteReg(R6, 0x00000000)  returns 0x00 (0000ms, 0538ms total)
T6244 008:464 JLINK_WriteReg(R7, 0x00000000)  returns 0x00 (0000ms, 0538ms total)
T6244 008:464 JLINK_WriteReg(R8, 0x00000000)  returns 0x00 (0000ms, 0538ms total)
T6244 008:464 JLINK_WriteReg(R9, 0x2000017C)  returns 0x00 (0000ms, 0538ms total)
T6244 008:464 JLINK_WriteReg(R10, 0x00000000)  returns 0x00 (0000ms, 0538ms total)
T6244 008:464 JLINK_WriteReg(R11, 0x00000000)  returns 0x00 (0000ms, 0538ms total)
T6244 008:464 JLINK_WriteReg(R12, 0x00000000)  returns 0x00 (0000ms, 0538ms total)
T6244 008:464 JLINK_WriteReg(R13 (SP), 0x20001000)  returns 0x00 (0000ms, 0538ms total)
T6244 008:464 JLINK_WriteReg(R14, 0x20000001)  returns 0x00 (0000ms, 0538ms total)
T6244 008:464 JLINK_WriteReg(R15 (PC), 0x20000108)  returns 0x00 (0000ms, 0538ms total)
T6244 008:464 JLINK_WriteReg(XPSR, 0x01000000)  returns 0x00 (0000ms, 0538ms total)
T6244 008:464 JLINK_WriteReg(MSP, 0x20001000)  returns 0x00 (0000ms, 0538ms total)
T6244 008:464 JLINK_WriteReg(PSP, 0x20001000)  returns 0x00 (0000ms, 0538ms total)
T6244 008:464 JLINK_WriteReg(CFBP, 0x00000000)  returns 0x00 (0000ms, 0538ms total)
T6244 008:464 JLINK_SetBPEx(Addr = 0x20000000, Type = 0xFFFFFFF2)  returns 0x0000000A (0000ms, 0538ms total)
T6244 008:464 JLINK_Go() -- CPU_ReadMem(4 bytes @ 0xE0001000) (0004ms, 0542ms total)
T6244 008:468 JLINK_IsHalted()  returns FALSE (0001ms, 0543ms total)
T6244 008:472 JLINK_IsHalted() -- CPU_ReadMem(2 bytes @ 0x20000000)  returns TRUE (0003ms, 0545ms total)
T6244 008:475 JLINK_ReadReg(R15 (PC))  returns 0x20000000 (0000ms, 0542ms total)
T6244 008:475 JLINK_ClrBPEx(BPHandle = 0x0000000A)  returns 0x00 (0000ms, 0542ms total)
T6244 008:475 JLINK_ReadReg(R0)  returns 0x00000000 (0000ms, 0542ms total)
T6244 008:476 JLINK_WriteMem(0x20000180, 0x0280 Bytes, ...) - Data: 10 B9 09 F1 01 00 0D 18 B9 EB 05 00 03 D4 C0 F1 ... -- CPU_WriteMem(640 bytes @ 0x20000180)  returns 0x280 (0004ms, 0546ms total)
T6244 008:480 JLINK_WriteMem(0x20000400, 0x0180 Bytes, ...) - Data: 01 E0 07 FA 0C F0 00 29 4F F0 00 48 01 DD 18 B9 ... -- CPU_WriteMem(384 bytes @ 0x20000400)  returns 0x180 (0002ms, 0548ms total)
T6244 008:482 JLINK_WriteReg(R0, 0x08001000)  returns 0x00 (0000ms, 0548ms total)
T6244 008:482 JLINK_WriteReg(R1, 0x00000400)  returns 0x00 (0000ms, 0548ms total)
T6244 008:482 JLINK_WriteReg(R2, 0x20000180)  returns 0x00 (0000ms, 0548ms total)
T6244 008:482 JLINK_WriteReg(R3, 0x00000000)  returns 0x00 (0000ms, 0548ms total)
T6244 008:482 JLINK_WriteReg(R4, 0x00000000)  returns 0x00 (0000ms, 0548ms total)
T6244 008:482 JLINK_WriteReg(R5, 0x00000000)  returns 0x00 (0000ms, 0548ms total)
T6244 008:482 JLINK_WriteReg(R6, 0x00000000)  returns 0x00 (0000ms, 0548ms total)
T6244 008:482 JLINK_WriteReg(R7, 0x00000000)  returns 0x00 (0000ms, 0548ms total)
T6244 008:482 JLINK_WriteReg(R8, 0x00000000)  returns 0x00 (0000ms, 0548ms total)
T6244 008:482 JLINK_WriteReg(R9, 0x2000017C)  returns 0x00 (0000ms, 0548ms total)
T6244 008:482 JLINK_WriteReg(R10, 0x00000000)  returns 0x00 (0000ms, 0548ms total)
T6244 008:482 JLINK_WriteReg(R11, 0x00000000)  returns 0x00 (0000ms, 0548ms total)
T6244 008:482 JLINK_WriteReg(R12, 0x00000000)  returns 0x00 (0000ms, 0548ms total)
T6244 008:482 JLINK_WriteReg(R13 (SP), 0x20001000)  returns 0x00 (0000ms, 0548ms total)
T6244 008:482 JLINK_WriteReg(R14, 0x20000001)  returns 0x00 (0000ms, 0548ms total)
T6244 008:482 JLINK_WriteReg(R15 (PC), 0x20000108)  returns 0x00 (0000ms, 0548ms total)
T6244 008:482 JLINK_WriteReg(XPSR, 0x01000000)  returns 0x00 (0000ms, 0548ms total)
T6244 008:482 JLINK_WriteReg(MSP, 0x20001000)  returns 0x00 (0000ms, 0548ms total)
T6244 008:482 JLINK_WriteReg(PSP, 0x20001000)  returns 0x00 (0000ms, 0548ms total)
T6244 008:482 JLINK_WriteReg(CFBP, 0x00000000)  returns 0x00 (0001ms, 0549ms total)
T6244 008:483 JLINK_SetBPEx(Addr = 0x20000000, Type = 0xFFFFFFF2)  returns 0x0000000B (0000ms, 0549ms total)
T6244 008:483 JLINK_Go() -- CPU_ReadMem(4 bytes @ 0xE0001000) (0003ms, 0552ms total)
T6244 008:486 JLINK_IsHalted()  returns FALSE (0001ms, 0553ms total)
T6244 008:491 JLINK_IsHalted() -- CPU_ReadMem(2 bytes @ 0x20000000)  returns TRUE (0003ms, 0555ms total)
T6244 008:494 JLINK_ReadReg(R15 (PC))  returns 0x20000000 (0000ms, 0552ms total)
T6244 008:494 JLINK_ClrBPEx(BPHandle = 0x0000000B)  returns 0x00 (0000ms, 0552ms total)
T6244 008:494 JLINK_ReadReg(R0)  returns 0x00000000 (0000ms, 0552ms total)
T6244 008:495 JLINK_WriteMem(0x20000180, 0x0280 Bytes, ...) - Data: 0A 2E 06 DB 96 FB F1 F0 30 30 02 F8 08 00 08 F1 ... -- CPU_WriteMem(640 bytes @ 0x20000180)  returns 0x280 (0003ms, 0555ms total)
T6244 008:498 JLINK_WriteMem(0x20000400, 0x0180 Bytes, ...) - Data: 00 27 FA 44 AA F1 BE 0A 0E E0 E0 07 0A D0 32 46 ... -- CPU_WriteMem(384 bytes @ 0x20000400)  returns 0x180 (0002ms, 0557ms total)
T6244 008:500 JLINK_WriteReg(R0, 0x08001400)  returns 0x00 (0000ms, 0557ms total)
T6244 008:500 JLINK_WriteReg(R1, 0x00000400)  returns 0x00 (0000ms, 0557ms total)
T6244 008:500 JLINK_WriteReg(R2, 0x20000180)  returns 0x00 (0000ms, 0557ms total)
T6244 008:500 JLINK_WriteReg(R3, 0x00000000)  returns 0x00 (0000ms, 0557ms total)
T6244 008:500 JLINK_WriteReg(R4, 0x00000000)  returns 0x00 (0000ms, 0557ms total)
T6244 008:500 JLINK_WriteReg(R5, 0x00000000)  returns 0x00 (0000ms, 0557ms total)
T6244 008:500 JLINK_WriteReg(R6, 0x00000000)  returns 0x00 (0000ms, 0557ms total)
T6244 008:500 JLINK_WriteReg(R7, 0x00000000)  returns 0x00 (0001ms, 0558ms total)
T6244 008:501 JLINK_WriteReg(R8, 0x00000000)  returns 0x00 (0000ms, 0558ms total)
T6244 008:501 JLINK_WriteReg(R9, 0x2000017C)  returns 0x00 (0000ms, 0558ms total)
T6244 008:501 JLINK_WriteReg(R10, 0x00000000)  returns 0x00 (0000ms, 0558ms total)
T6244 008:501 JLINK_WriteReg(R11, 0x00000000)  returns 0x00 (0000ms, 0558ms total)
T6244 008:501 JLINK_WriteReg(R12, 0x00000000)  returns 0x00 (0000ms, 0558ms total)
T6244 008:501 JLINK_WriteReg(R13 (SP), 0x20001000)  returns 0x00 (0000ms, 0558ms total)
T6244 008:501 JLINK_WriteReg(R14, 0x20000001)  returns 0x00 (0000ms, 0558ms total)
T6244 008:501 JLINK_WriteReg(R15 (PC), 0x20000108)  returns 0x00 (0000ms, 0558ms total)
T6244 008:501 JLINK_WriteReg(XPSR, 0x01000000)  returns 0x00 (0000ms, 0558ms total)
T6244 008:501 JLINK_WriteReg(MSP, 0x20001000)  returns 0x00 (0000ms, 0558ms total)
T6244 008:501 JLINK_WriteReg(PSP, 0x20001000)  returns 0x00 (0000ms, 0558ms total)
T6244 008:501 JLINK_WriteReg(CFBP, 0x00000000)  returns 0x00 (0000ms, 0558ms total)
T6244 008:501 JLINK_SetBPEx(Addr = 0x20000000, Type = 0xFFFFFFF2)  returns 0x0000000C (0000ms, 0558ms total)
T6244 008:501 JLINK_Go() -- CPU_ReadMem(4 bytes @ 0xE0001000) (0003ms, 0561ms total)
T6244 008:504 JLINK_IsHalted()  returns FALSE (0001ms, 0562ms total)
T6244 008:508 JLINK_IsHalted()  returns FALSE (0000ms, 0561ms total)
T6244 008:511 JLINK_IsHalted() -- CPU_ReadMem(2 bytes @ 0x20000000)  returns TRUE (0003ms, 0564ms total)
T6244 008:514 JLINK_ReadReg(R15 (PC))  returns 0x20000000 (0000ms, 0561ms total)
T6244 008:514 JLINK_ClrBPEx(BPHandle = 0x0000000C)  returns 0x00 (0000ms, 0561ms total)
T6244 008:514 JLINK_ReadReg(R0)  returns 0x00000000 (0000ms, 0561ms total)
T6244 008:514 JLINK_WriteMem(0x20000180, 0x0280 Bytes, ...) - Data: 02 0C CB 0F 04 BF 49 00 0C F1 01 0C CC F1 20 03 ... -- CPU_WriteMem(640 bytes @ 0x20000180)  returns 0x280 (0003ms, 0564ms total)
T6244 008:517 JLINK_WriteMem(0x20000400, 0x0180 Bytes, ...) - Data: 4E EB 0E 0E 4F F0 00 0B 00 18 52 41 49 41 4B EB ... -- CPU_WriteMem(384 bytes @ 0x20000400)  returns 0x180 (0003ms, 0567ms total)
T6244 008:520 JLINK_WriteReg(R0, 0x08001800)  returns 0x00 (0000ms, 0567ms total)
T6244 008:520 JLINK_WriteReg(R1, 0x00000400)  returns 0x00 (0000ms, 0567ms total)
T6244 008:520 JLINK_WriteReg(R2, 0x20000180)  returns 0x00 (0000ms, 0567ms total)
T6244 008:520 JLINK_WriteReg(R3, 0x00000000)  returns 0x00 (0000ms, 0567ms total)
T6244 008:520 JLINK_WriteReg(R4, 0x00000000)  returns 0x00 (0000ms, 0567ms total)
T6244 008:520 JLINK_WriteReg(R5, 0x00000000)  returns 0x00 (0000ms, 0567ms total)
T6244 008:520 JLINK_WriteReg(R6, 0x00000000)  returns 0x00 (0000ms, 0567ms total)
T6244 008:520 JLINK_WriteReg(R7, 0x00000000)  returns 0x00 (0000ms, 0567ms total)
T6244 008:520 JLINK_WriteReg(R8, 0x00000000)  returns 0x00 (0000ms, 0567ms total)
T6244 008:520 JLINK_WriteReg(R9, 0x2000017C)  returns 0x00 (0000ms, 0567ms total)
T6244 008:520 JLINK_WriteReg(R10, 0x00000000)  returns 0x00 (0000ms, 0567ms total)
T6244 008:520 JLINK_WriteReg(R11, 0x00000000)  returns 0x00 (0000ms, 0567ms total)
T6244 008:520 JLINK_WriteReg(R12, 0x00000000)  returns 0x00 (0000ms, 0567ms total)
T6244 008:520 JLINK_WriteReg(R13 (SP), 0x20001000)  returns 0x00 (0000ms, 0567ms total)
T6244 008:520 JLINK_WriteReg(R14, 0x20000001)  returns 0x00 (0000ms, 0567ms total)
T6244 008:520 JLINK_WriteReg(R15 (PC), 0x20000108)  returns 0x00 (0000ms, 0567ms total)
T6244 008:520 JLINK_WriteReg(XPSR, 0x01000000)  returns 0x00 (0000ms, 0567ms total)
T6244 008:520 JLINK_WriteReg(MSP, 0x20001000)  returns 0x00 (0000ms, 0567ms total)
T6244 008:520 JLINK_WriteReg(PSP, 0x20001000)  returns 0x00 (0000ms, 0567ms total)
T6244 008:520 JLINK_WriteReg(CFBP, 0x00000000)  returns 0x00 (0000ms, 0567ms total)
T6244 008:520 JLINK_SetBPEx(Addr = 0x20000000, Type = 0xFFFFFFF2)  returns 0x0000000D (0000ms, 0567ms total)
T6244 008:520 JLINK_Go() -- CPU_ReadMem(4 bytes @ 0xE0001000) (0004ms, 0571ms total)
T6244 008:524 JLINK_IsHalted()  returns FALSE (0001ms, 0572ms total)
T6244 008:528 JLINK_IsHalted() -- CPU_ReadMem(2 bytes @ 0x20000000)  returns TRUE (0003ms, 0574ms total)
T6244 008:531 JLINK_ReadReg(R15 (PC))  returns 0x20000000 (0000ms, 0571ms total)
T6244 008:531 JLINK_ClrBPEx(BPHandle = 0x0000000D)  returns 0x00 (0000ms, 0571ms total)
T6244 008:531 JLINK_ReadReg(R0)  returns 0x00000000 (0000ms, 0571ms total)
T6244 008:532 JLINK_WriteMem(0x20000180, 0x0280 Bytes, ...) - Data: 03 F2 01 FA 07 F7 21 FA 03 F1 4F F0 00 03 42 EA ... -- CPU_WriteMem(640 bytes @ 0x20000180)  returns 0x280 (0003ms, 0574ms total)
T6244 008:535 JLINK_WriteMem(0x20000400, 0x0180 Bytes, ...) - Data: B6 19 52 41 41 EB 01 01 A3 F1 01 03 70 47 4F EA ... -- CPU_WriteMem(384 bytes @ 0x20000400)  returns 0x180 (0003ms, 0577ms total)
T6244 008:538 JLINK_WriteReg(R0, 0x08001C00)  returns 0x00 (0000ms, 0577ms total)
T6244 008:538 JLINK_WriteReg(R1, 0x00000400)  returns 0x00 (0000ms, 0577ms total)
T6244 008:538 JLINK_WriteReg(R2, 0x20000180)  returns 0x00 (0000ms, 0577ms total)
T6244 008:538 JLINK_WriteReg(R3, 0x00000000)  returns 0x00 (0000ms, 0577ms total)
T6244 008:538 JLINK_WriteReg(R4, 0x00000000)  returns 0x00 (0000ms, 0577ms total)
T6244 008:538 JLINK_WriteReg(R5, 0x00000000)  returns 0x00 (0000ms, 0577ms total)
T6244 008:538 JLINK_WriteReg(R6, 0x00000000)  returns 0x00 (0000ms, 0577ms total)
T6244 008:538 JLINK_WriteReg(R7, 0x00000000)  returns 0x00 (0000ms, 0577ms total)
T6244 008:538 JLINK_WriteReg(R8, 0x00000000)  returns 0x00 (0000ms, 0577ms total)
T6244 008:538 JLINK_WriteReg(R9, 0x2000017C)  returns 0x00 (0000ms, 0577ms total)
T6244 008:538 JLINK_WriteReg(R10, 0x00000000)  returns 0x00 (0000ms, 0577ms total)
T6244 008:538 JLINK_WriteReg(R11, 0x00000000)  returns 0x00 (0000ms, 0577ms total)
T6244 008:538 JLINK_WriteReg(R12, 0x00000000)  returns 0x00 (0000ms, 0577ms total)
T6244 008:538 JLINK_WriteReg(R13 (SP), 0x20001000)  returns 0x00 (0000ms, 0577ms total)
T6244 008:538 JLINK_WriteReg(R14, 0x20000001)  returns 0x00 (0000ms, 0577ms total)
T6244 008:538 JLINK_WriteReg(R15 (PC), 0x20000108)  returns 0x00 (0000ms, 0577ms total)
T6244 008:538 JLINK_WriteReg(XPSR, 0x01000000)  returns 0x00 (0000ms, 0577ms total)
T6244 008:538 JLINK_WriteReg(MSP, 0x20001000)  returns 0x00 (0000ms, 0577ms total)
T6244 008:538 JLINK_WriteReg(PSP, 0x20001000)  returns 0x00 (0000ms, 0577ms total)
T6244 008:538 JLINK_WriteReg(CFBP, 0x00000000)  returns 0x00 (0000ms, 0577ms total)
T6244 008:538 JLINK_SetBPEx(Addr = 0x20000000, Type = 0xFFFFFFF2)  returns 0x0000000E (0000ms, 0577ms total)
T6244 008:538 JLINK_Go() -- CPU_ReadMem(4 bytes @ 0xE0001000) (0004ms, 0581ms total)
T6244 008:542 JLINK_IsHalted()  returns FALSE (0001ms, 0582ms total)
T6244 008:546 JLINK_IsHalted()  returns FALSE (0000ms, 0581ms total)
T6244 008:548 JLINK_IsHalted() -- CPU_ReadMem(2 bytes @ 0x20000000)  returns TRUE (0003ms, 0584ms total)
T6244 008:551 JLINK_ReadReg(R15 (PC))  returns 0x20000000 (0000ms, 0581ms total)
T6244 008:551 JLINK_ClrBPEx(BPHandle = 0x0000000E)  returns 0x00 (0000ms, 0581ms total)
T6244 008:551 JLINK_ReadReg(R0)  returns 0x00000000 (0000ms, 0581ms total)
T6244 008:552 JLINK_WriteMem(0x20000180, 0x0280 Bytes, ...) - Data: 41 15 20 35 D5 60 00 E0 D0 60 49 1C 99 42 E7 D3 ... -- CPU_WriteMem(640 bytes @ 0x20000180)  returns 0x280 (0003ms, 0584ms total)
T6244 008:555 JLINK_WriteMem(0x20000400, 0x0180 Bytes, ...) - Data: 61 6B 08 43 05 43 36 48 05 60 D4 E9 0E 01 08 43 ... -- CPU_WriteMem(384 bytes @ 0x20000400)  returns 0x180 (0003ms, 0587ms total)
T6244 008:558 JLINK_WriteReg(R0, 0x08002000)  returns 0x00 (0000ms, 0587ms total)
T6244 008:558 JLINK_WriteReg(R1, 0x00000400)  returns 0x00 (0000ms, 0587ms total)
T6244 008:558 JLINK_WriteReg(R2, 0x20000180)  returns 0x00 (0000ms, 0587ms total)
T6244 008:558 JLINK_WriteReg(R3, 0x00000000)  returns 0x00 (0000ms, 0587ms total)
T6244 008:558 JLINK_WriteReg(R4, 0x00000000)  returns 0x00 (0000ms, 0587ms total)
T6244 008:558 JLINK_WriteReg(R5, 0x00000000)  returns 0x00 (0000ms, 0587ms total)
T6244 008:558 JLINK_WriteReg(R6, 0x00000000)  returns 0x00 (0000ms, 0587ms total)
T6244 008:558 JLINK_WriteReg(R7, 0x00000000)  returns 0x00 (0000ms, 0587ms total)
T6244 008:558 JLINK_WriteReg(R8, 0x00000000)  returns 0x00 (0000ms, 0587ms total)
T6244 008:558 JLINK_WriteReg(R9, 0x2000017C)  returns 0x00 (0000ms, 0587ms total)
T6244 008:558 JLINK_WriteReg(R10, 0x00000000)  returns 0x00 (0000ms, 0587ms total)
T6244 008:558 JLINK_WriteReg(R11, 0x00000000)  returns 0x00 (0000ms, 0587ms total)
T6244 008:558 JLINK_WriteReg(R12, 0x00000000)  returns 0x00 (0000ms, 0587ms total)
T6244 008:558 JLINK_WriteReg(R13 (SP), 0x20001000)  returns 0x00 (0000ms, 0587ms total)
T6244 008:558 JLINK_WriteReg(R14, 0x20000001)  returns 0x00 (0000ms, 0587ms total)
T6244 008:558 JLINK_WriteReg(R15 (PC), 0x20000108)  returns 0x00 (0000ms, 0587ms total)
T6244 008:558 JLINK_WriteReg(XPSR, 0x01000000)  returns 0x00 (0000ms, 0587ms total)
T6244 008:558 JLINK_WriteReg(MSP, 0x20001000)  returns 0x00 (0000ms, 0587ms total)
T6244 008:558 JLINK_WriteReg(PSP, 0x20001000)  returns 0x00 (0000ms, 0587ms total)
T6244 008:558 JLINK_WriteReg(CFBP, 0x00000000)  returns 0x00 (0000ms, 0587ms total)
T6244 008:558 JLINK_SetBPEx(Addr = 0x20000000, Type = 0xFFFFFFF2)  returns 0x0000000F (0000ms, 0587ms total)
T6244 008:558 JLINK_Go() -- CPU_ReadMem(4 bytes @ 0xE0001000) (0004ms, 0591ms total)
T6244 008:563 JLINK_IsHalted()  returns FALSE (0001ms, 0592ms total)
T6244 008:567 JLINK_IsHalted() -- CPU_ReadMem(2 bytes @ 0x20000000)  returns TRUE (0004ms, 0595ms total)
T6244 008:571 JLINK_ReadReg(R15 (PC))  returns 0x20000000 (0000ms, 0591ms total)
T6244 008:571 JLINK_ClrBPEx(BPHandle = 0x0000000F)  returns 0x00 (0000ms, 0591ms total)
T6244 008:571 JLINK_ReadReg(R0)  returns 0x00000000 (0000ms, 0591ms total)
T6244 008:572 JLINK_WriteMem(0x20000180, 0x0280 Bytes, ...) - Data: 4F F0 00 70 22 90 00 11 24 90 00 20 26 90 27 90 ... -- CPU_WriteMem(640 bytes @ 0x20000180)  returns 0x280 (0003ms, 0594ms total)
T6244 008:575 JLINK_WriteMem(0x20000400, 0x0180 Bytes, ...) - Data: 01 61 4F F4 80 41 41 61 00 21 81 61 C1 61 4F F4 ... -- CPU_WriteMem(384 bytes @ 0x20000400)  returns 0x180 (0002ms, 0596ms total)
T6244 008:577 JLINK_WriteReg(R0, 0x08002400)  returns 0x00 (0000ms, 0596ms total)
T6244 008:577 JLINK_WriteReg(R1, 0x00000400)  returns 0x00 (0000ms, 0596ms total)
T6244 008:577 JLINK_WriteReg(R2, 0x20000180)  returns 0x00 (0000ms, 0596ms total)
T6244 008:577 JLINK_WriteReg(R3, 0x00000000)  returns 0x00 (0000ms, 0596ms total)
T6244 008:577 JLINK_WriteReg(R4, 0x00000000)  returns 0x00 (0000ms, 0596ms total)
T6244 008:577 JLINK_WriteReg(R5, 0x00000000)  returns 0x00 (0000ms, 0596ms total)
T6244 008:577 JLINK_WriteReg(R6, 0x00000000)  returns 0x00 (0000ms, 0596ms total)
T6244 008:577 JLINK_WriteReg(R7, 0x00000000)  returns 0x00 (0000ms, 0596ms total)
T6244 008:577 JLINK_WriteReg(R8, 0x00000000)  returns 0x00 (0000ms, 0596ms total)
T6244 008:577 JLINK_WriteReg(R9, 0x2000017C)  returns 0x00 (0000ms, 0596ms total)
T6244 008:577 JLINK_WriteReg(R10, 0x00000000)  returns 0x00 (0000ms, 0596ms total)
T6244 008:577 JLINK_WriteReg(R11, 0x00000000)  returns 0x00 (0000ms, 0596ms total)
T6244 008:577 JLINK_WriteReg(R12, 0x00000000)  returns 0x00 (0000ms, 0596ms total)
T6244 008:577 JLINK_WriteReg(R13 (SP), 0x20001000)  returns 0x00 (0000ms, 0596ms total)
